;删除本文件可以恢复默认值。
;这是SSCOM的设置保存文件,您在程序中设置好的串口参数和字符串数据都会自动保存,请最好不要用外部编辑器改动本文件!
;如果文件被修改后程序不能打开,请删除本文件,程序将会自动生成一个新的ini文件.
;靠行首的半角分号是注释符号
;每行都以回车结束

;"="后面的H表示这是个HEX数据串
;"="后面的A表示这是个ASC字符串
;Nx表示第几条定义的字符串(1<x<=N)
N101=1,十六进制数据串1,1000
N1=A,AT+CPIN?

N102=3,字符串1,1000
N2=A,AT+CGPSPWR=1

N103=2,欢迎语,1000
N3=A,AT+CIPPING="111.13.100.92"432100

N104=0,4无注释,1000
N4=A,AT+CNMP=2

N105=0,5无注释,1000
N5=A,AT+CPIN="856131"

N106=0,6无注释,1000
N6=A,AT+CSQ

N107=0,7无注释,1000
N7=A,ATH

N108=0,8无注释,1000
<<<<<<< HEAD:sscom5.13.1/sscom51.ini
N8=A,AT+CPIN=?

N109=0,,1000
N9=A,AT+CESQ 

N110=0,,1000
N10=A,AT+QSCLK?

N111=0,,1000
N11=A,AT+QENG=0

N112=0,,1000
N12=A,AT+CMNB?

N113=0,,1000
N13=A,AT+CMNB=?

N114=0,,1000
N14=A,AT+CMNB=2

N115=0,,1000
N15=A,

N116=0,,1000
N16=A,AT+CIFSR=?

N117=0,,1000
N17=A,AT+CIICR

N118=0,,1000
N18=A,AT+CGNAPN
=======
N8=H,00 10 00 00 00 01 02 00 FF 6A 00

N109=0,,1000
<<<<<<< HEAD:sscom5.13.1/sscom51.ini
N9=A,t00181122334455667788

N110=0,,1000
N10=A,S3

N111=0,,1000
N11=A,C

N112=0,,1000
N12=A,O
=======
N9=H,

N110=0,,1000
N10=H,00 03 00 00 00 01 85 DB

N111=0,read_in,1000
N11=H,

N112=0,,1000
N12=H,
>>>>>>> 8c2c1b44c982cecba01a214f4d66fed72924124f:sscom5.13.1-2/sscom51.ini

N113=0,,1000
N13=H,

N114=0,,1000
N14=H,

N115=0,,1000
N15=H,

N116=0,,1000
N16=A,

N117=0,,1000
N17=A,

N118=0,,1000
N18=A,
>>>>>>> e3b12e2f0aaaf536f690ce34a03cb4b1c0490d1e:sscom5.13.1-2/sscom51.ini

N119=0,19无注释,1000
N19=A,AT+CIICR

N120=0,20无注释,1000
N20=H,02 05 00 01 FF 00 C8 24

N121=0,21无注释,1000
<<<<<<< HEAD:sscom5.13.1/sscom51.ini
N21=A,AT+NBSC?
=======
N21=H,02 05 00 01 00 00 89 D4
>>>>>>> e3b12e2f0aaaf536f690ce34a03cb4b1c0490d1e:sscom5.13.1-2/sscom51.ini

N122=0,22无注释,1000
N22=A,AT+NBSC=1

N123=0,23无注释,1000
<<<<<<< HEAD:sscom5.13.1/sscom51.ini
N23=A,AT+NBSC=0
=======
N23=H,FF 05 00 02 FF 00 38 24
>>>>>>> e3b12e2f0aaaf536f690ce34a03cb4b1c0490d1e:sscom5.13.1-2/sscom51.ini

N124=0,24无注释,1000
N24=H,FF 05 00 02 00 00 79 D4

N125=0,25无注释,1000
N25=A,

N126=0,26无注释,1000
<<<<<<< HEAD:sscom5.13.1/sscom51.ini
N26=A,AT+QNBIOTRAI?

N127=0,27无注释,1000
N27=A,AT+QIACT? 
=======
N26=H,FF 0F 00 00 00 08 01 FF 30 1D

N127=0,27无注释,1000
N27=H,FF 0F 00 00 00 08 01 00 70 5D
>>>>>>> e3b12e2f0aaaf536f690ce34a03cb4b1c0490d1e:sscom5.13.1-2/sscom51.ini

N128=0,28无注释,1000
N28=A,AT+QIACT=1

N129=0,29无注释,1000
<<<<<<< HEAD:sscom5.13.1/sscom51.ini
N29=A,AT+CREG?

N130=0,30无注释,1000
N30=A,AT+COPS?  
=======
N29=H,FF 01 00 00 00 08 28 12

N130=0,30无注释,1000
N30=H,
>>>>>>> e3b12e2f0aaaf536f690ce34a03cb4b1c0490d1e:sscom5.13.1-2/sscom51.ini

N131=0,31无注释,1000
N31=A,AT+CGATT?

N132=0,32无注释,1000
N32=A,AT+CPSI?

N133=0,33无注释,1000
N33=A,

N134=0,34无注释,1000
N34=A,AT+CNMP?

N135=0,35无注释,1000
N35=A,AT+CNMP=2

N136=0,36无注释,1000
N36=A,AT+CNMP=38

N137=0,37无注释,1000
N37=A,

N138=0,38无注释,1000
N38=A,AT+CGNAPN

N139=0,39无注释,1000
N39=A,

N140=0,40无注释,1000
N40=A,

N141=0,41无注释,1000
N41=A,LSM_S

N142=0,42无注释,1000
N42=A,INI_S

N143=0,43无注释,1000
N43=A,

N144=0,44无注释,1000
N44=A,INI_S;+8616556920292;+8618576608994;00010;00000

N145=0,45无注释,1000
N45=A,

N146=0,46无注释,1000
N46=A,LSM

N147=0,47无注释,1000
N47=A,

N148=0,48无注释,1000
N48=A,

N149=0,49无注释,1000
N49=A,

N150=0,50无注释,1000
N50=A,CAR;00011

N151=0,51无注释,1000
N51=A,

N152=0,52无注释,1000
N52=A,INI_S;16556920292;18576608994;00010;00000

N153=0,53无注释,1000
N53=A,

N154=0,54无注释,1000
N54=A,

N155=0,55无注释,1000
N55=A,AT+CMGS="18576608994"

N156=0,56无注释,1000
N56=A,hello 123

N157=0,57无注释,1000
N57=H,1a

N158=0,58无注释,1000
N58=A,

N159=0,59无注释,1000
N59=A,AT+CEREG?

N160=0,60无注释,1000
N60=A,AT+CMGF?

N161=0,61无注释,1000
N61=A,

N162=0,62无注释,1000
N62=A,

N163=0,63无注释,1000
N63=A,

N164=0,64无注释,1000
N64=A,AT+QGNSSRD?

N165=0,65无注释,1000
N65=A,AT+CSCON?

N166=0,66无注释,1000
N66=A,AT+COPS?

N167=0,67无注释,1000
N67=A,

N168=0,68无注释,1000
N68=A,AT+CGNSPWR?

N169=0,69无注释,1000
N69=A,AT+CGNSPWR=

N170=0,70无注释,1000
N70=A,AT+CGNSTST=1

N171=0,71无注释,1000
N71=A,AT+CGNSINF

N172=0,72无注释,1000
N72=A,AT+CGNSRST=1

N173=0,73无注释,1000
N73=A,AT+CSQ?

N174=0,74无注释,1000
N74=A,AT+CFUN=0

N175=0,75无注释,1000
N75=A,

N176=0,76无注释,1000
N76=A,AT+CGPIO=0500

N177=0,77无注释,1000
N77=A,AT+CGPIO=0511

N178=0,78无注释,1000
N78=A,AT+CGPIO=1500

N179=0,79无注释,1000
N79=A,AT+CGPIO=0411

N180=0,80无注释,1000
N80=A,

N181=0,81无注释,1000
N81=A,AT+CEDRXS?

N182=0,82无注释,1000
N82=A,AT+CEDRXS=14"0101"

N183=0,83无注释,1000
N83=A,AT+CEDRXRDP

N184=0,84无注释,1000
N84=A,

N185=0,85无注释,1000
N85=A,AT+CPSMS?

N186=0,86无注释,1000
N86=A,

N187=0,87无注释,1000
N87=A,AT+CGPIO=?

N188=0,88无注释,1000
N88=A,

N189=0,89无注释,1000
N89=A,AT+CFUN=1

N190=0,90无注释,1000
N90=A,

N191=0,91无注释,1000
N91=A,AT+CPIN?

N192=0,92无注释,1000
N92=A,AT+CPSMS?

N193=0,93无注释,1000
N93=A,

N194=0,94无注释,1000
N94=A,AT+CFUN?

N195=0,95无注释,1000
N95=A,AT+CFUN=0

N196=0,96无注释,1000
N96=A,AT+CESQ

N197=0,97无注释,1000
N97=A,AT+CIMI

N198=0,98无注释,1000
N98=A,AT+CGATT?

N199=0,99无注释,1000
N99=A,AT+QBAND=?

;发送文件时每256字节延时时间ms
N1051=,1
;打开文件地址和名称
N1052=,
;主面板ASC字符串
<<<<<<< HEAD:sscom5.13.1/sscom51.ini
N1053=,AT+CMGS="18576608994"
;主面板HEX数据串
N1054=,1a
=======
N1053=,t00181122334455667788
;主面板HEX数据串
N1054=,FF 05 00 01 FF 00 C8 24
>>>>>>> e3b12e2f0aaaf536f690ce34a03cb4b1c0490d1e:sscom5.13.1-2/sscom51.ini
;主面板发送方式(ASC or HEX)
N1055=,H
;主面板字符串发送间隔时间ms
N1056=,100
;主面板字符串发送新行
N1057=,Y
;多条字符串发送间隔时间ms
N1058=,1
;接收窗口是否HEX显示方式
N1059=,N
;校验方式,0=None，1=modbusCRC16，2=ADD，3=XOR
N1060=,0
;保存DTR:
N1061=,N
;保存RTS:
N1062=,N
;程序启动时是否打开串口
N1063=,N
;是否分包显示
N1064=,N
;分包超时时间ms
N1065=,20
;接收窗背景颜色
N1066=,16777215
;显示缓冲上限,200K,500K,1M,2M,5M,10M,20M
N1067=,200000
;远程IP地址
N1068=,120.76.28.211
;远程端口
N1069=,80
;本地端口
N1070=,777
;选择回车后发送行(带回显)
N1071=,N
;选择按键立即发送键值
N1072=,Y
;选择回显
N1073=,N
;第几字节至末尾加校验
N1074=,1
;至末尾倒数第几字节加校验,存第几个项目
N1075=,0
;终端仿真输入回车后是否自动加换行
N1076=,N
;当前串口号Port=COMX,网络模式):1=TCPCLIENT,2=TCPSERVER,3=UDP
<<<<<<< HEAD:sscom5.13.1/sscom51.ini
N1080=,COM16
;波特率Band rate
N1081=,19200
=======
<<<<<<< HEAD:sscom5.13.1/sscom51.ini
N1080=,1
=======
<<<<<<< HEAD
N1080=,COM5
=======
N1080=,COM19
>>>>>>> 74f84b510f09e7949229a11093145c0326738e6f
>>>>>>> 8c2c1b44c982cecba01a214f4d66fed72924124f:sscom5.13.1-2/sscom51.ini
;波特率Band rate
N1081=,9600
>>>>>>> e3b12e2f0aaaf536f690ce34a03cb4b1c0490d1e:sscom5.13.1-2/sscom51.ini
;保存窗口宽度
N1082=,845
;保存窗口高度
N1083=,769
;保存窗口left
<<<<<<< HEAD:sscom5.13.1/sscom51.ini
N1084=,1021
;保存窗口top
N1085=,175
=======
<<<<<<< HEAD:sscom5.13.1/sscom51.ini
N1084=,848
;保存窗口top
N1085=,114
=======
N1084=,911
;保存窗口top
N1085=,134
>>>>>>> 8c2c1b44c982cecba01a214f4d66fed72924124f:sscom5.13.1-2/sscom51.ini
>>>>>>> e3b12e2f0aaaf536f690ce34a03cb4b1c0490d1e:sscom5.13.1-2/sscom51.ini
;分割线位置(右侧装多条自定义字符串的容器宽度)
N1086=,418
;多条发送按钮的宽度
N1087=,120
;保存窗口字体名称
N1088=,宋体
;保存窗口字体大小
N1089=,9
;保存窗口字体颜色
N1090=,0
;C:Chinese汉语,E:English
N1100=,汉语
;end